EC-Lab ASCII FILE
Nb header lines : 87                          

Potentio Electrochemical Impedance Spectroscopy

Run on channel : 6 (SN 2683)
User : 
Electrode connection : standard
Ewe ctrl range : min = -1.00 V, max = 1.00 V
Ewe,I filtering : 50 kHz
Safety Limits :
	Do not start on E overload
Channel : Grounded
Acquisition started on : 06/12/2019 18:45:02
Saved on :
	File : new2B-50Pt-300(150)LOC-125Pt-3MHzfi-800muHzff-1000mV.+-1VERange_02_PEIS_C06.mpr
	Directory : C:\Data_local\Sandro\EIS\50Pt-300(150)LOC-125Pt\
	Host : 129.69.118.31
Device : VSP-300 (SN 0120)
Address : USB
EC-Lab for windows v11.12 (software)
Internet server v11.12 (firmware)
Command interpretor v11.12 (firmware)
Electrode material : 
Initial state : 
Electrolyte : 
Comments : 
Cable : standard
Electrode surface area : 0.001 cm²
Characteristic mass : 0.001 g
Equivalent Weight : 0.000 g/eq.
Density : 0.000 g/cm3
Cycle Definition : Charge/Discharge alternance
Mode                Single sine         
E (V)               0.0000              
vs.                 Eoc                 
tE (h:m:s)          0:00:0.0000         
record              0                   
dI                  0.000               
unit dI             mA                  
dt (s)              0.000               
fi                  3.000               
unit fi             MHz                 
ff                  800.000             
unit ff             µHz                 
Nd                  8                   
Points              per decade          
spacing             Logarithmic         
Va (mV)             1000.0              
pw                  0.20                
Na                  2                   
corr                0                   
lim_nb              0                   
limit_type1         Time                
limit_comp1         >                   
limit_value1        0.000               
limit_unit1         s                   
limit_type2         Time                
limit_comp2         >                   
limit_value2        0.000               
limit_unit2         s                   
limit_type3         Time                
limit_comp3         >                   
limit_value3        0.000               
limit_unit3         s                   
limit_type4         Time                
limit_comp4         >                   
limit_value4        0.000               
limit_unit4         s                   
limit_type5         Time                
limit_comp5         >                   
limit_value5        0.000               
limit_unit5         s                   
limit_type6         Time                
limit_comp6         >                   
limit_value6        0.000               
limit_unit6         s                   
E range min (V)     -1.000              
E range max (V)     1.000               
I Range             Auto                
Bandwidth           8                   
nc cycles           0                   
goto Ns'            0                   
nr cycles           0                   
inc. cycle          0                   

freq/Hz	Re(Z)/Ohm	-Im(Z)/Ohm	|Z|/Ohm	Phase(Z)/deg	time/s	<Ewe>/V	<I>/mA	Cs/µF	Cp/µF	cycle number	I Range	|Ewe|/V	|I|/A	Re(Y)/Ohm-1	Im(Y)/Ohm-1	|Y|/Ohm-1	Phase(Y)/deg	
3.0000188E+006	-3.2600482E+002	1.4271730E+003	1.4639337E+003	-1.0286713E+002	3.028509758296423E+000	-2.5437281E-002	8.4077771E-004	3.7172307E-005	3.5328885E-005	1.000000000000000E+000	40	6.8193793E-002	4.6582569E-005	-1.5211818E-004	6.6593802E-004	6.8309106E-004	1.0286713E+002
2.2446380E+006	2.0216049E+002	1.0695540E+003	1.0884918E+003	-7.9296577E+001	3.424491323763505E+000	-2.6621467E-002	1.8303057E-004	6.6293527E-005	6.4006810E-005	1.000000000000000E+000	40	1.0284081E-001	9.4480100E-005	1.7062628E-004	9.0271846E-004	9.1870234E-004	7.9296577E+001
1.6794723E+006	3.0030334E+002	1.1707209E+003	1.2086230E+003	-7.5613167E+001	3.819500009180047E+000	-2.6731148E-002	1.5988729E-004	8.0945727E-005	7.5948461E-005	1.000000000000000E+000	40	1.7580108E-001	1.4545568E-004	2.0557882E-004	8.0144120E-004	8.2738785E-004	7.5613167E+001
1.2566013E+006	4.2705014E+002	1.3928677E+003	1.4568638E+003	-7.2954575E+001	4.214504587929696E+000	-2.6789840E-002	1.8597787E-004	9.0931171E-005	8.3117913E-005	1.000000000000000E+000	40	1.8831858E-001	1.2926300E-004	2.0120604E-004	6.5625401E-004	6.8640598E-004	7.2954575E+001
9.4020488E+005	5.9864099E+002	1.7033881E+003	1.8055199E+003	-7.0636414E+001	4.610498073394410E+000	-2.6787564E-002	1.8260317E-004	9.9376579E-005	8.8451801E-005	1.000000000000000E+000	40	2.4897891E-001	1.3789874E-004	1.8363775E-004	5.2252738E-004	5.5385707E-004	7.0636414E+001
7.0347638E+005	8.2332709E+002	2.0430033E+003	2.2026643E+003	-6.8050644E+001	5.006503452255856E+000	-2.6893033E-002	2.6214361E-004	1.1073924E-004	9.5267125E-005	1.000000000000000E+000	40	3.3333650E-001	1.5133331E-004	1.6969763E-004	4.2108761E-004	4.5399566E-004	6.8050644E+001
5.2634750E+005	1.1178420E+003	2.4492922E+003	2.6923230E+003	-6.5468330E+001	5.402500671043526E+000	-2.6806148E-002	2.1568873E-004	1.2345451E-004	1.0217245E-004	1.000000000000000E+000	40	4.5315096E-001	1.6831225E-004	1.5421484E-004	3.3789850E-004	3.7142646E-004	6.5468330E+001
3.9382803E+005	1.4000707E+003	2.8808589E+003	3.2030525E+003	-6.4080681E+001	5.797501143126283E+000	-2.6797397E-002	1.7098743E-004	1.4027863E-004	1.1347688E-004	1.000000000000000E+000	40	6.2079269E-001	1.9381284E-004	1.3646517E-004	2.8079792E-004	3.1220220E-004	6.4080681E+001
2.9466791E+005	1.6691733E+003	3.4257891E+003	3.8107966E+003	-6.4022911E+001	6.192490815243218E+000	-2.6821109E-002	1.7887670E-004	1.5766188E-004	1.2741378E-004	1.000000000000000E+000	40	8.5597563E-001	2.2461855E-004	1.1493967E-004	2.3590062E-004	2.6241233E-004	6.4022911E+001
2.2046870E+005	1.9251035E+003	4.1560474E+003	4.5802568E+003	-6.5146172E+001	6.587500034016557E+000	-2.6894338E-002	2.0373650E-004	1.7369715E-004	1.4301250E-004	1.000000000000000E+000	40	1.0167662E+000	2.2198891E-004	9.1764443E-005	1.9810745E-004	2.1832837E-004	6.5146172E+001
1.6496089E+005	2.1869685E+003	5.1498130E+003	5.5949448E+003	-6.6990547E+001	6.982500559417531E+000	-2.6859939E-002	2.0780171E-004	1.8734740E-004	1.5872267E-004	1.000000000000000E+000	40	1.0336179E+000	1.8474138E-004	6.9863599E-005	1.6451287E-004	1.7873278E-004	6.6990547E+001
1.2342771E+005	2.4889373E+003	6.4912471E+003	6.9520571E+003	-6.9021690E+001	7.377509938203730E+000	-2.6700011E-002	9.7974342E-005	1.9864578E-004	1.7318447E-004	1.000000000000000E+000	40	1.0266598E+000	1.4767713E-004	5.1497638E-005	1.3430788E-004	1.4384232E-004	6.9021690E+001
9.2353492E+004	2.8807810E+003	8.2729648E+003	8.7601855E+003	-7.0801048E+001	7.773490596970078E+000	-2.6858356E-002	1.9603183E-004	2.0830784E-004	1.8578103E-004	1.000000000000000E+000	40	1.0165474E+000	1.1604177E-004	3.7539088E-005	1.0780393E-004	1.1415283E-004	7.0801048E+001
6.9101547E+004	3.4165767E+003	1.0603853E+004	1.1140677E+004	-7.2140984E+001	8.044505089870654E+000	-2.6851228E-002	2.2223381E-004	2.1720443E-004	1.9677635E-004	1.000000000000000E+000	40	1.0891292E+000	9.7761498E-005	2.7527580E-005	8.5435924E-005	8.9761154E-005	7.2140984E+001
5.1699203E+004	4.1554722E+003	1.3641647E+004	1.4260522E+004	-7.3058395E+001	8.439491428609472E+000	-2.6886173E-002	2.3528800E-004	2.2566773E-004	2.0650578E-004	1.000000000000000E+000	40	1.0126632E+000	7.1011651E-005	2.0433816E-005	6.7080444E-005	7.0123657E-005	7.3058395E+001
3.8681633E+004	5.1874268E+003	1.7553863E+004	1.8304303E+004	-7.3536812E+001	8.710496614803560E+000	-2.6804734E-002	1.8689175E-004	2.3439190E-004	2.1556670E-004	1.000000000000000E+000	40	1.0272232E+000	5.6119221E-005	1.5482658E-005	5.2392163E-005	5.4631964E-005	7.3536812E+001
2.8945303E+004	1.3983247E+004	2.3324395E+004	2.7194826E+004	-5.9056820E+001	9.135502448363695E+000	-2.6887530E-002	1.4101285E-005	2.3573911E-004	1.7341228E-004	1.000000000000000E+000	41	1.0593443E+000	3.8953891E-005	1.8907558E-005	3.1538264E-005	3.6771700E-005	5.9056820E+001
2.1650381E+004	1.5938661E+004	2.8873164E+004	3.2980305E+004	-6.1100277E+001	9.407505501294509E+000	-2.6713263E-002	-4.8964203E-006	2.5460104E-004	1.9513701E-004	1.000000000000000E+000	41	1.0486338E+000	3.1795760E-005	1.4653539E-005	2.6545142E-005	3.0321127E-005	6.1100277E+001
1.6201168E+004	1.8535424E+004	3.6144082E+004	4.0619656E+004	-6.2850323E+001	9.679496100870892E+000	-2.6837977E-002	8.7439812E-006	2.7179197E-004	2.1519815E-004	1.000000000000000E+000	41	1.0229895E+000	2.5184594E-005	1.1233886E-005	2.1906082E-005	2.4618623E-005	6.2850323E+001
1.2119137E+004	2.2187551E+004	4.5413098E+004	5.0543414E+004	-6.3961178E+001	9.950500860402826E+000	-2.6966102E-002	1.9760066E-005	2.8917938E-004	2.3345352E-004	1.000000000000000E+000	41	9.8369390E-001	1.9462355E-005	8.6852078E-006	1.7776734E-005	1.9784971E-005	6.3961178E+001
9.1101377E+003	2.7264209E+004	5.6865723E+004	6.3063836E+004	-6.4384659E+001	1.024263010092545E+001	-2.5206249E-002	1.7953249E-005	3.0721654E-004	2.4979570E-004	1.000000000000000E+000	41	1.0669364E+000	1.6918355E-005	6.8553904E-006	1.4298477E-005	1.5856949E-005	6.4384659E+001
6.9084614E+003	3.3875602E+004	7.0316367E+004	7.8050930E+004	-6.4277100E+001	1.061033857174334E+001	-2.5245123E-002	-4.2342840E-006	3.2762901E-004	2.6591268E-004	1.000000000000000E+000	41	1.0638297E+000	1.3629942E-005	5.5607179E-006	1.1542510E-005	1.2812147E-005	6.4277100E+001
5.0783750E+003	4.4534004E+004	8.8317391E+004	9.8910258E+004	-6.3240498E+001	1.108819408778800E+001	-2.5298931E-002	2.0177933E-005	3.5485355E-004	2.8291691E-004	1.000000000000000E+000	41	1.0616654E+000	1.0733623E-005	4.5520715E-006	9.0274189E-006	1.0110175E-005	6.3240498E+001
3.7987827E+003	5.8083109E+004	1.0845996E+005	1.2303338E+005	-6.1829803E+001	1.156420005706605E+001	-2.5099196E-002	7.5377238E-006	3.8628359E-004	3.0019210E-004	1.000000000000000E+000	41	1.0604070E+000	8.6188566E-006	3.8371072E-006	7.1651220E-006	8.1278758E-006	6.1829803E+001
2.8422698E+003	7.6488445E+004	1.3167286E+005	1.5227680E+005	-5.9847797E+001	1.204035159968771E+001	-2.5255209E-002	1.0804126E-005	4.2526395E-004	3.1796817E-004	1.000000000000000E+000	41	1.0596434E+000	6.9586663E-006	3.2985904E-006	5.6784365E-006	6.5669888E-006	5.9847797E+001
2.1270437E+003	1.0047462E+005	1.5727495E+005	1.8662947E+005	-5.7427650E+001	1.251498180883937E+001	-2.5209419E-002	1.6088225E-005	4.7575589E-004	3.3786474E-004	1.000000000000000E+000	41	1.0591812E+000	5.6753161E-006	2.8846687E-006	4.5154302E-006	5.3582107E-006	5.7427650E+001
1.5915259E+003	1.7139808E+005	1.6841080E+005	2.4029044E+005	-4.4496323E+001	1.323695981648052E+001	-2.5213895E-002	-1.1101808E-005	5.9379498E-004	2.9167780E-004	1.000000000000000E+000	42	1.0616769E+000	4.4183066E-006	2.9684720E-006	2.9167347E-006	4.1616304E-006	4.4496323E+001
1.1903792E+003	2.0404844E+005	1.9347059E+005	2.8118791E+005	-4.3475739E+001	1.371206711909326E+001	-2.5136707E-002	-1.1428745E-005	6.9106650E-004	3.2715724E-004	1.000000000000000E+000	42	1.0604993E+000	3.7714967E-006	2.5807149E-006	2.4469309E-006	3.5563407E-006	4.3475739E+001
8.9085846E+002	2.4434703E+005	2.1837205E+005	3.2770691E+005	-4.1787045E+001	1.418696151493350E+001	-2.5202839E-002	-1.2557327E-005	8.1811502E-004	3.6327649E-004	1.000000000000000E+000	42	1.0597497E+000	3.2338339E-006	2.2752854E-006	2.0334144E-006	3.0515073E-006	4.1787045E+001
6.6649316E+002	2.9213625E+005	2.4110338E+005	3.7878019E+005	-3.9533245E+001	1.466169223084580E+001	-2.5098488E-002	-1.1321281E-005	9.9042396E-004	4.0128524E-004	1.000000000000000E+000	42	1.0594252E+000	2.7969395E-006	2.0361556E-006	1.6804624E-006	2.6400537E-006	3.9533245E+001
4.9888266E+002	3.4599606E+005	2.5865614E+005	4.3199106E+005	-3.6780670E+001	1.513862161349971E+001	-2.5048055E-002	-1.1650471E-005	1.2333858E-003	4.4217581E-004	1.000000000000000E+000	42	1.0588801E+000	2.4511621E-006	1.8540509E-006	1.3860320E-006	2.3148627E-006	3.6780670E+001
3.7320850E+002	4.0400675E+005	2.7081791E+005	4.8637822E+005	-3.3835140E+001	1.561713507624518E+001	-2.5129287E-002	-1.2343522E-005	1.5746760E-003	4.8819996E-004	1.000000000000000E+000	42	1.0586702E+000	2.1766398E-006	1.7078131E-006	1.1447987E-006	2.0560130E-006	3.3835140E+001
2.7919559E+002	4.6385488E+005	2.7685606E+005	5.4019500E+005	-3.0831255E+001	1.609370965883136E+001	-2.5205318E-002	-1.2503070E-005	2.0590057E-003	5.4083462E-004	1.000000000000000E+000	42	1.0587232E+000	1.9598908E-006	1.5895749E-006	9.4875247E-007	1.8511834E-006	3.0831255E+001
2.0886360E+002	5.2369734E+005	2.7575394E+005	5.9186075E+005	-2.7769144E+001	1.657222936159815E+001	-2.5135104E-002	-1.2184728E-005	2.7633484E-003	5.9984630E-004	1.000000000000000E+000	42	1.0584991E+000	1.7884259E-006	1.4950003E-006	7.8719563E-007	1.6895866E-006	2.7769144E+001
1.5635117E+002	5.8046319E+005	2.7212456E+005	6.4108444E+005	-2.5117460E+001	1.704443855735008E+001	-2.5228586E-002	-1.1667279E-005	3.7406862E-003	6.7399436E-004	1.000000000000000E+000	42	1.0585945E+000	1.6512558E-006	1.4123561E-006	6.6212084E-007	1.5598570E-006	2.5117460E+001
1.1698380E+002	6.3450075E+005	2.6292484E+005	6.8681925E+005	-2.2508171E+001	1.751374924631091E+001	-2.5122464E-002	-1.2448216E-005	5.1744333E-003	7.5830013E-004	1.000000000000000E+000	42	1.0584764E+000	1.5411281E-006	1.3450772E-006	5.5737399E-007	1.4559871E-006	2.2508171E+001
8.7562202E+001	6.8497700E+005	2.5230711E+005	7.2996738E+005	-2.0220968E+001	1.800172244280111E+001	-2.5151072E-002	-8.3493860E-006	7.2040041E-003	8.6064893E-004	1.000000000000000E+000	42	1.0585555E+000	1.4501408E-006	1.2854912E-006	4.7350284E-007	1.3699242E-006	2.0220968E+001
6.5481956E+001	7.3043763E+005	2.3950139E+005	7.6870025E+005	-1.8153671E+001	1.847465881193057E+001	-2.5139542E-002	-1.1578652E-005	1.0148233E-002	9.8512752E-004	1.000000000000000E+000	42	1.0584868E+000	1.3769825E-006	1.2361442E-006	4.0531623E-007	1.3008972E-006	1.8153671E+001
4.8981159E+001	7.2966831E+005	1.8552183E+005	7.5288394E+005	-1.4265467E+001	1.895931022163131E+001	-2.5209047E-002	-9.2194232E-006	1.7514434E-002	1.0634818E-003	1.000000000000000E+000	42	1.0584304E+000	1.4058348E-006	1.2872694E-006	3.2729469E-007	1.3282259E-006	1.4265467E+001
3.6653801E+001	8.0933856E+005	2.0407339E+005	8.3467050E+005	-1.4152036E+001	1.941514024330536E+001	-2.5201179E-002	-1.4970545E-005	2.1277212E-002	1.2719128E-003	1.000000000000000E+000	42	1.0585215E+000	1.2681909E-006	1.1617163E-006	2.9292488E-007	1.1980776E-006	1.4152036E+001
2.7431547E+001	8.4730738E+005	2.0310991E+005	8.7131131E+005	-1.3480141E+001	1.985139997067745E+001	-2.5138777E-002	-1.3294476E-005	2.8565295E-002	1.5522233E-003	1.000000000000000E+000	42	1.0584714E+000	1.2148029E-006	1.1160773E-006	2.6753736E-007	1.1476955E-006	1.3480141E+001
2.0518675E+001	8.7787038E+005	1.8748056E+005	8.9766663E+005	-1.2055157E+001	2.031711116615043E+001	-2.5078369E-002	-1.4446379E-005	4.1372769E-002	1.8046662E-003	1.000000000000000E+000	42	1.0584065E+000	1.1790640E-006	1.0894323E-006	2.3266236E-007	1.1139994E-006	1.2055157E+001
1.5348717E+001	9.1001669E+005	1.8703913E+005	9.2903931E+005	-1.1614470E+001	2.078262857487425E+001	-2.5116311E-002	-1.0318902E-005	5.5439021E-002	2.2470478E-003	1.000000000000000E+000	42	1.0583853E+000	1.1392254E-006	1.0543412E-006	2.1670269E-007	1.0763807E-006	1.1614470E+001
1.1488944E+001	9.3920144E+005	1.7859238E+005	9.5603063E+005	-1.0766452E+001	2.120220142151811E+001	-2.5180129E-002	-1.0950367E-005	7.7567019E-002	2.7068197E-003	1.000000000000000E+000	42	1.0583951E+000	1.1070724E-006	1.0275787E-006	1.9539763E-007	1.0459916E-006	1.0766452E+001
8.5946169E+000	9.6712156E+005	1.7412628E+005	9.8267194E+005	-1.0206522E+001	2.174990704748780E+001	-2.5127692E-002	-8.8216939E-006	1.0634799E-001	3.3391875E-003	1.000000000000000E+000	42	1.0584300E+000	1.0770939E-006	1.0015300E-006	1.8032139E-007	1.0176336E-006	1.0206522E+001
6.4300365E+000	9.9164056E+005	1.6967086E+005	1.0060513E+006	-9.7093534E+000	2.212963749218034E+001	-2.5181621E-002	-5.9076037E-006	1.4588124E-001	4.1492889E-003	1.000000000000000E+000	42	1.0585343E+000	1.0521672E-006	9.7974714E-007	1.6763587E-007	9.9398505E-007	9.7093534E+000
4.8106532E+000	1.0212839E+006	1.6535369E+005	1.0345834E+006	-9.1968174E+000	2.262301460901563E+001	-2.5161235E-002	-5.2452569E-006	2.0007932E-001	5.1109190E-003	1.000000000000000E+000	42	1.0584805E+000	1.0230983E-006	9.5414748E-007	1.5448379E-007	9.6657266E-007	9.1968174E+000
3.6002319E+000	1.0406403E+006	1.6929884E+005	1.0543218E+006	-9.2403345E+000	2.326999378635082E+001	-2.5101824E-002	-7.1838795E-006	2.6111731E-001	6.7328247E-003	1.000000000000000E+000	42	1.0583804E+000	1.0038495E-006	9.3616910E-007	1.5230272E-007	9.4847707E-007	9.2403345E+000
2.6930344E+000	1.0690161E+006	1.6916014E+005	1.0823173E+006	-8.9918756E+000	2.412057689344510E+001	-2.5290875E-002	-9.0792728E-006	3.4936565E-001	8.5342843E-003	1.000000000000000E+000	42	1.0584817E+000	9.7797727E-007	9.1258869E-007	1.4440721E-007	9.2394350E-007	8.9918756E+000
2.0156052E+000	1.0903460E+006	1.7011436E+005	1.1035368E+006	-8.8677216E+000	2.524451582680922E+001	-2.5182577E-002	-8.1246844E-006	4.6416637E-001	1.1030165E-002	1.000000000000000E+000	42	1.0585593E+000	9.5924247E-007	8.9534564E-007	1.3969066E-007	9.0617732E-007	8.8677216E+000
1.5087872E+000	1.1095714E+006	1.7401350E+005	1.1231338E+006	-8.9130669E+000	2.673423213760543E+001	-2.5203845E-002	-6.8371442E-006	6.0619062E-001	1.4551647E-002	1.000000000000000E+000	42	1.0584403E+000	9.4239920E-007	8.7961439E-007	1.3794947E-007	8.9036592E-007	8.9130669E+000
1.1289715E+000	1.1356373E+006	1.7479220E+005	1.1490101E+006	-8.7500448E+000	2.871427185830544E+001	-2.5165241E-002	-8.9143905E-006	8.0651993E-001	1.8664291E-002	1.000000000000000E+000	42	1.0584335E+000	9.2116989E-007	8.6018508E-007	1.3239584E-007	8.7031435E-007	8.7500448E+000
8.4450090E-001	1.1574386E+006	1.8363766E+005	1.1719159E+006	-9.0153265E+000	3.135099971678574E+001	-2.5162173E-002	-9.2660157E-006	1.0262620E+000	2.5199324E-002	1.000000000000000E+000	42	1.0584428E+000	9.0317303E-007	8.4276223E-007	1.3371152E-007	8.5330356E-007	9.0153265E+000
6.3131303E-001	1.1797415E+006	1.8653073E+005	1.1943968E+006	-8.9847460E+000	3.486589913710486E+001	-2.5182225E-002	-7.5264766E-006	1.3515278E+000	3.2963138E-002	1.000000000000000E+000	42	1.0584407E+000	8.8617179E-007	8.2696971E-007	1.3075346E-007	8.3724274E-007	8.9847460E+000
4.7291145E-001	1.2003195E+006	1.9423267E+005	1.2159331E+006	-9.1917820E+000	3.954876274621347E+001	-2.5203120E-002	-6.8688973E-006	1.7326787E+000	4.4212312E-002	1.000000000000000E+000	42	1.0584749E+000	8.7050421E-007	8.1185317E-007	1.3137203E-007	8.2241365E-007	9.1917820E+000
3.5373047E-001	1.2223188E+006	1.9849394E+005	1.2383308E+006	-9.2238188E+000	4.580026954985806E+001	-2.5206137E-002	-7.8294242E-006	2.2667332E+000	5.8240026E-002	1.000000000000000E+000	42	1.0584465E+000	8.5473653E-007	7.9709702E-007	1.2944162E-007	8.0753870E-007	9.2238188E+000
2.6465133E-001	1.2499275E+006	2.0685903E+005	1.2669291E+006	-9.3970947E+000	5.414698071952444E+001	-2.5192788E-002	-9.2923347E-006	2.9071777E+000	7.7502534E-002	1.000000000000000E+000	42	1.0584760E+000	8.3546581E-007	7.7871795E-007	1.2887536E-007	7.8931015E-007	9.3970947E+000
1.9806027E-001	1.2686066E+006	2.1203859E+005	1.2862049E+006	-9.4888697E+000	6.529097039555199E+001	-2.5185371E-002	-9.3868221E-006	3.7897265E+000	1.0299529E-001	1.000000000000000E+000	42	1.0584307E+000	8.2290990E-007	7.6684330E-007	1.2817243E-007	7.7748109E-007	9.4888697E+000
1.4820248E-001	1.2932889E+006	2.1596919E+005	1.3111975E+006	-9.4804697E+000	8.017401507587419E+001	-2.5204642E-002	-8.4333160E-006	4.9724779E+000	1.3490257E-001	1.000000000000000E+000	42	1.0584599E+000	8.0724675E-007	7.5224506E-007	1.2561907E-007	7.6266161E-007	9.4804697E+000
1.1083409E-001	1.3143914E+006	2.2363056E+005	1.3332799E+006	-9.6558418E+000	1.000683150607802E+002	-2.5210097E-002	-9.5540227E-006	6.4211912E+000	1.8064888E-001	1.000000000000000E+000	42	1.0584495E+000	7.9386894E-007	7.3940447E-007	1.2580227E-007	7.5003010E-007	9.6558418E+000
